
T3398 011:777 SEGGER J-Link V4.90 Log File (0047ms, 11523ms total)
T3398 011:777 DLL Compiled: Jul 28 2014 10:35:20 (0047ms, 11523ms total)
T3398 011:777 Logging started @ 2017-06-13 20:14 (0047ms, 11523ms total)
T3398 011:824 JLINK_SetWarnOutHandler(...) (0001ms, 11524ms total)
T3398 011:825 JLINK_OpenEx(...)
Firmware: J-Link ARM V8 compiled Jul 17 2014 12:31:18
Hardware: V8.00
S/N: 799713843
Feature(s): RDI,FlashDL,FlashBP,JFlash,GDBFULL  returns O.K. (0280ms, 11804ms total)
T3398 012:105 JLINK_SetErrorOutHandler(...) (0000ms, 11804ms total)
T3398 012:106 JLINK_ExecCommand("ProjectFile = "E:\鲁亮\鲁亮\2015无线门禁\无线门禁V5.3\USER\JLinkSettings.ini"", ...)  returns 0x00 (0030ms, 11834ms total)
T3398 012:143 JLINK_ExecCommand("Device = STM32F103ZE", ...)Device "STM32F103ZE" selected (512 KB flash, 64 KB RAM).  returns 0x00 (0013ms, 11847ms total)
T3398 012:156 JLINK_ExecCommand("DisableConnectionTimeout", ...)  returns 0x01 (0000ms, 11847ms total)
T3398 012:156 JLINK_GetHardwareVersion()  returns 0x13880 (0000ms, 11847ms total)
T3398 012:157 JLINK_GetDLLVersion()  returns 49000 (0000ms, 11848ms total)
T3398 012:157 JLINK_GetFirmwareString(...) (0000ms, 11848ms total)
T3398 012:198 JLINK_GetDLLVersion()  returns 49000 (0000ms, 11848ms total)
T3398 012:198 JLINK_GetCompileDateTime() (0000ms, 11848ms total)
T3398 012:211 JLINK_GetFirmwareString(...) (0001ms, 11849ms total)
T3398 012:216 JLINK_GetHardwareVersion()  returns 0x13880 (0000ms, 11849ms total)
T3398 012:236 JLINK_TIF_Select(JLINKARM_TIF_SWD)  returns 0x00 (0004ms, 11853ms total)
T3398 012:240 JLINK_SetSpeed(10000) (0001ms, 11854ms total)
T3398 012:241 JLINK_GetId() >0x108 TIF>Found SWD-DP with ID 0x1BA01477 >0x0D TIF> >0x28 TIF> >0x0D TIF> >0x28 TIF> >0x0D TIF> >0x21 TIF> >0x0D TIF> >0x28 TIF> >0x0D TIF> >0x28 TIF> >0x0D TIF> >0x28 TIF> >0x0D TIF> >0x21 TIF> >0x0D TIF> >0x21 TIF> >0x0D TIF> >0x28 TIF> >0x0D TIF> >0x21 TIF> >0x0D TIF> >0x21 TIF> >0x0D TIF> >0x28 TIF> >0x0D TIF> >0x28 TIF> >0x108 TIF>Found SWD-DP with ID 0x1BA01477 >0x0D TIF> >0x21 TIF> >0x0D TIF> >0x28 TIF> >0x0D TIF> >0x28 TIF> >0x0D TIF> >0x21 TIF> >0x0D TIF> >0x28 TIF>
 >0x0D TIF> >0x21 TIF> >0x0D TIF> >0x21 TIF> >0x0D TIF> >0x21 TIF> >0x0D TIF> >0x21 TIF> >0x0D TIF> >0x28 TIF> >0x0D TIF> >0x28 TIF> >0x0D TIF> >0x21 TIF> >0x0D TIF> >0x28 TIF> >0x0D TIF> >0x28 TIF> >0x0D TIF> >0x28 TIF> >0x0D TIF> >0x21 TIF> >0x0D TIF> >0x21 TIF> >0x0D TIF> >0x28 TIF> >0x0D TIF> >0x21 TIF> >0x0D TIF> >0x21 TIF>Found Cortex-M3 r1p1, Little endian. -- CPU_WriteMem(4 bytes @ 0xE0002000) -- CPU_ReadMem(4 bytes @ 0xE000EDF0) -- CPU_WriteMem(4 bytes @ 0xE000EDF0)
 -- CPU_ReadMem(4 bytes @ 0xE0002000)FPUnit: 6 code (BP) slots and 2 literal slots -- CPU_ReadMem(4 bytes @ 0xE000EDFC) -- CPU_WriteMem(4 bytes @ 0xE000EDFC) -- CPU_ReadMem(4 bytes @ 0xE0001000) -- CPU_WriteMem(4 bytes @ 0xE0001000) -- CPU_ReadMem(4 bytes @ 0xE00FF010)TPIU fitted. -- CPU_ReadMem(4 bytes @ 0xE00FF014)ETM fitted. -- CPU_ReadMem(4 bytes @ 0xE00FF018) >0x0D TIF> >0x21 TIF>  returns 0x1BA01477 (0100ms, 11954ms total)
T3398 012:341 JLINK_GetDLLVersion()  returns 49000 (0000ms, 11954ms total)
T3398 012:342 JLINK_CORE_GetFound()  returns 0x30000FF (0000ms, 11955ms total)
T3398 012:346 JLINK_GetDebugInfo(0x100) -- Value=0xE00FF003  returns 0x00 (0001ms, 11956ms total)
T3398 012:347 JLINK_GetDebugInfo(0x101)  returns 0xFFFFFFFF (0000ms, 11956ms total)
T3398 012:347 JLINK_ReadMem (0xE0041FF0, 0x0010 Bytes, ...) -- CPU is running -- CPU_ReadMem(16 bytes @ 0xE0041FF0) - Data: 0D 00 00 00 90 00 00 00 05 00 00 00 B1 00 00 00  returns 0x00 (0001ms, 11957ms total)
T3398 012:348 JLINK_GetDebugInfo(0x102)  returns 0xFFFFFFFF (0001ms, 11958ms total)
T3398 012:349 JLINK_GetDebugInfo(0x103)  returns 0xFFFFFFFF (0000ms, 11958ms total)
T3398 012:349 JLINK_ReadMem (0xE0040FF0, 0x0010 Bytes, ...) -- CPU is running -- CPU_ReadMem(16 bytes @ 0xE0040FF0) - Data: 0D 00 00 00 90 00 00 00 05 00 00 00 B1 00 00 00  returns 0x00 (0001ms, 11959ms total)
T3398 012:350 JLINK_GetDebugInfo(0x104)  returns 0xFFFFFFFF (0000ms, 11959ms total)
T3398 012:351 JLINK_GetDebugInfo(0x105)  returns 0xFFFFFFFF (0000ms, 11960ms total)
T3398 012:351 JLINK_GetDebugInfo(0x106)  returns 0xFFFFFFFF (0000ms, 11960ms total)
T3398 012:351 JLINK_GetDebugInfo(0x107)  returns 0xFFFFFFFF (0000ms, 11960ms total)
T3398 012:351 JLINK_GetDebugInfo(0x10C)  returns 0xFFFFFFFF (0000ms, 11960ms total)
T3398 012:351 JLINK_ReadMemU32(0xE000ED00, 0x0001 Items, ...) -- CPU is running -- CPU_ReadMem(4 bytes @ 0xE000ED00) - Data: 31 C2 1F 41  returns 0x01 (0002ms, 11962ms total)
T3398 012:353 JLINK_SetResetType(JLINKARM_RESET_TYPE_NORMAL)  returns JLINKARM_RESET_TYPE_NORMAL (0000ms, 11962ms total)
T3398 012:353 JLINK_Reset() -- CPU is running -- CPU_WriteMem(4 bytes @ 0xE000EDF0) -- CPU is running -- CPU_WriteMem(4 bytes @ 0xE000EDFC) >0x35 TIF> -- CPU is running -- CPU_WriteMem(4 bytes @ 0xE000ED0C) -- CPU is running -- CPU_ReadMem(4 bytes @ 0xE000EDF0) -- CPU is running -- CPU_ReadMem(4 bytes @ 0xE000EDF0) -- CPU is running -- CPU_WriteMem(4 bytes @ 0xE000EDF0) -- CPU is running -- CPU_WriteMem(4 bytes @ 0xE000EDFC) -- CPU is running -- CPU_ReadMem(4 bytes @ 0xE000EDF0)
 -- CPU_WriteMem(4 bytes @ 0xE0002000) -- CPU_ReadMem(4 bytes @ 0xE000EDFC) -- CPU_ReadMem(4 bytes @ 0xE0001000) (0024ms, 11986ms total)
T3398 012:377 JLINK_Halt()  returns 0x00 (0000ms, 11986ms total)
T3398 012:378 JLINK_IsHalted()  returns TRUE (0000ms, 11987ms total)
T3398 012:378 JLINK_ReadMemU32(0xE000EDF0, 0x0001 Items, ...) -- CPU_ReadMem(4 bytes @ 0xE000EDF0) - Data: 03 00 03 00  returns 0x01 (0001ms, 11988ms total)
T3398 012:379 JLINK_WriteU32(0xE000EDF0, 0xA05F0003) -- CPU_WriteMem(4 bytes @ 0xE000EDF0)  returns 0x00 (0001ms, 11989ms total)
T3398 012:380 JLINK_WriteU32(0xE000EDFC, 0x01000000) -- CPU_WriteMem(4 bytes @ 0xE000EDFC)  returns 0x00 (0001ms, 11990ms total)
T3398 012:409 JLINK_GetHWStatus(...)  returns 0x00 (0004ms, 11994ms total)
T3398 012:435 JLINK_GetNumBPUnits(Type = 0xFFFFFF00)  returns 0x06 (0001ms, 11995ms total)
T3398 012:436 JLINK_GetNumBPUnits(Type = 0xF0)  returns 0x2000 (0000ms, 11995ms total)
T3398 012:436 JLINK_GetNumWPUnits()  returns 0x04 (0000ms, 11995ms total)
T3398 012:458 JLINK_GetSpeed()  returns 0xFA0 (0001ms, 11996ms total)
T3398 012:469 JLINK_ReadMemU32(0xE000E004, 0x0001 Items, ...) -- CPU_ReadMem(4 bytes @ 0xE000E004) - Data: 01 00 00 00  returns 0x01 (0002ms, 11998ms total)
T3398 012:471 JLINK_ReadMemU32(0xE000E004, 0x0001 Items, ...) -- CPU_ReadMem(4 bytes @ 0xE000E004) - Data: 01 00 00 00  returns 0x01 (0001ms, 11999ms total)
T3398 012:472 JLINK_WriteMem(0xE0001000, 0x001C Bytes, ...) - Data: 01 00 00 00 00 00 00 00 00 00 00 00 00 00 00 00 ... -- CPU_WriteMem(28 bytes @ 0xE0001000)  returns 0x1C (0001ms, 12000ms total)
T3398 012:473 JLINK_ReadMem (0xE0001000, 0x001C Bytes, ...) -- CPU_ReadMem(28 bytes @ 0xE0001000) - Data: 01 00 00 40 00 00 00 00 00 00 00 00 00 00 00 00 ...  returns 0x00 (0002ms, 12002ms total)
T3398 012:475 JLINK_Halt()  returns 0x00 (0000ms, 12002ms total)
T3398 012:475 JLINK_IsHalted()  returns TRUE (0000ms, 12002ms total)
T3398 012:534 JLINK_WriteMem(0x20000000, 0x0164 Bytes, ...) - Data: 00 BE 0A E0 0D 78 2D 06 68 40 08 24 40 00 00 D3 ... -- CPU_WriteMem(356 bytes @ 0x20000000)  returns 0x164 (0004ms, 12006ms total)
T3398 012:538 JLINK_WriteReg(R0, 0x08000000)  returns 0x00 (0000ms, 12006ms total)
T3398 012:538 JLINK_WriteReg(R1, 0x007A1200)  returns 0x00 (0000ms, 12006ms total)
T3398 012:538 JLINK_WriteReg(R2, 0x00000001)  returns 0x00 (0000ms, 12006ms total)
T3398 012:538 JLINK_WriteReg(R3, 0x00000000)  returns 0x00 (0001ms, 12007ms total)
T3398 012:539 JLINK_WriteReg(R4, 0x00000000)  returns 0x00 (0000ms, 12007ms total)
T3398 012:539 JLINK_WriteReg(R5, 0x00000000)  returns 0x00 (0000ms, 12007ms total)
T3398 012:539 JLINK_WriteReg(R6, 0x00000000)  returns 0x00 (0000ms, 12007ms total)
T3398 012:540 JLINK_WriteReg(R7, 0x00000000)  returns 0x00 (0000ms, 12008ms total)
T3398 012:540 JLINK_WriteReg(R8, 0x00000000)  returns 0x00 (0000ms, 12008ms total)
T3398 012:540 JLINK_WriteReg(R9, 0x20000160)  returns 0x00 (0000ms, 12008ms total)
T3398 012:540 JLINK_WriteReg(R10, 0x00000000)  returns 0x00 (0000ms, 12008ms total)
T3398 012:540 JLINK_WriteReg(R11, 0x00000000)  returns 0x00 (0000ms, 12008ms total)
T3398 012:541 JLINK_WriteReg(R12, 0x00000000)  returns 0x00 (0000ms, 12008ms total)
T3398 012:541 JLINK_WriteReg(R13 (SP), 0x20001000)  returns 0x00 (0000ms, 12008ms total)
T3398 012:541 JLINK_WriteReg(R14, 0x20000001)  returns 0x00 (0000ms, 12008ms total)
T3398 012:541 JLINK_WriteReg(R15 (PC), 0x20000038)  returns 0x00 (0000ms, 12008ms total)
T3398 012:541 JLINK_WriteReg(XPSR, 0x01000000)  returns 0x00 (0000ms, 12008ms total)
T3398 012:541 JLINK_WriteReg(MSP, 0x20001000)  returns 0x00 (0001ms, 12009ms total)
T3398 012:542 JLINK_WriteReg(PSP, 0x20001000)  returns 0x00 (0000ms, 12009ms total)
T3398 012:542 JLINK_WriteReg(CFBP, 0x00000000)  returns 0x00 (0000ms, 12009ms total)
T3398 012:542 JLINK_SetBPEx(Addr = 0x20000000, Type = 0xFFFFFFF2) -- CPU_ReadMem(2 bytes @ 0x20000000)  returns 0x00000001 (0001ms, 12010ms total)
T3398 012:543 JLINK_Go() -- CPU_WriteMem(2 bytes @ 0x20000000) -- CPU_WriteMem(4 bytes @ 0xE0002008) -- CPU_WriteMem(4 bytes @ 0xE000200C) -- CPU_WriteMem(4 bytes @ 0xE0002010) -- CPU_WriteMem(4 bytes @ 0xE0002014) -- CPU_WriteMem(4 bytes @ 0xE0002018) -- CPU_WriteMem(4 bytes @ 0xE000201C) -- CPU_WriteMem(4 bytes @ 0xE0001004) (0011ms, 12021ms total)
T3398 012:555 JLINK_IsHalted() -- CPU_ReadMem(2 bytes @ 0x20000000)  returns TRUE (0005ms, 12027ms total)
T3398 012:560 JLINK_ReadReg(R15 (PC))  returns 0x20000000 (0000ms, 12022ms total)
T3398 012:560 JLINK_ClrBPEx(BPHandle = 0x00000001)  returns 0x00 (0000ms, 12022ms total)
T3398 012:560 JLINK_ReadReg(R0)  returns 0x00000000 (0000ms, 12022ms total)
T3398 012:560 JLINK_WriteReg(R0, 0x08000000)  returns 0x00 (0001ms, 12023ms total)
T3398 012:561 JLINK_WriteReg(R1, 0x007A1200)  returns 0x00 (0000ms, 12023ms total)
T3398 012:561 JLINK_WriteReg(R2, 0x00000001)  returns 0x00 (0000ms, 12023ms total)
T3398 012:561 JLINK_WriteReg(R3, 0x00000000)  returns 0x00 (0001ms, 12024ms total)
T3398 012:562 JLINK_WriteReg(R4, 0x00000000)  returns 0x00 (0000ms, 12024ms total)
T3398 012:562 JLINK_WriteReg(R5, 0x00000000)  returns 0x00 (0000ms, 12024ms total)
T3398 012:562 JLINK_WriteReg(R6, 0x00000000)  returns 0x00 (0000ms, 12024ms total)
T3398 012:562 JLINK_WriteReg(R7, 0x00000000)  returns 0x00 (0001ms, 12025ms total)
T3398 012:563 JLINK_WriteReg(R8, 0x00000000)  returns 0x00 (0000ms, 12025ms total)
T3398 012:563 JLINK_WriteReg(R9, 0x20000160)  returns 0x00 (0000ms, 12025ms total)
T3398 012:563 JLINK_WriteReg(R10, 0x00000000)  returns 0x00 (0000ms, 12025ms total)
T3398 012:563 JLINK_WriteReg(R11, 0x00000000)  returns 0x00 (0000ms, 12025ms total)
T3398 012:563 JLINK_WriteReg(R12, 0x00000000)  returns 0x00 (0001ms, 12026ms total)
T3398 012:564 JLINK_WriteReg(R13 (SP), 0x20001000)  returns 0x00 (0000ms, 12026ms total)
T3398 012:564 JLINK_WriteReg(R14, 0x20000001)  returns 0x00 (0000ms, 12026ms total)
T3398 012:564 JLINK_WriteReg(R15 (PC), 0x2000007C)  returns 0x00 (0000ms, 12026ms total)
T3398 012:564 JLINK_WriteReg(XPSR, 0x01000000)  returns 0x00 (0001ms, 12027ms total)
T3398 012:565 JLINK_WriteReg(MSP, 0x20001000)  returns 0x00 (0000ms, 12027ms total)
T3398 012:565 JLINK_WriteReg(PSP, 0x20001000)  returns 0x00 (0000ms, 12027ms total)
T3398 012:565 JLINK_WriteReg(CFBP, 0x00000000)  returns 0x00 (0000ms, 12027ms total)
T3398 012:565 JLINK_SetBPEx(Addr = 0x20000000, Type = 0xFFFFFFF2)  returns 0x00000002 (0000ms, 12027ms total)
T3398 012:565 JLINK_Go() (0003ms, 12030ms total)
T3398 012:568 JLINK_IsHalted()  returns FALSE (0001ms, 12031ms total)
T3398 013:101 JLINK_IsHalted() -- CPU_ReadMem(2 bytes @ 0x20000000)  returns TRUE (0005ms, 12035ms total)
T3398 013:106 JLINK_ReadReg(R15 (PC))  returns 0x20000000 (0000ms, 12030ms total)
T3398 013:106 JLINK_ClrBPEx(BPHandle = 0x00000002)  returns 0x00 (0001ms, 12031ms total)
T3398 013:107 JLINK_ReadReg(R0)  returns 0x00000000 (0000ms, 12031ms total)
T3398 013:161 JLINK_WriteReg(R0, 0x00000001)  returns 0x00 (0000ms, 12031ms total)
T3398 013:161 JLINK_WriteReg(R1, 0x007A1200)  returns 0x00 (0000ms, 12031ms total)
T3398 013:161 JLINK_WriteReg(R2, 0x00000001)  returns 0x00 (0000ms, 12031ms total)
T3398 013:161 JLINK_WriteReg(R3, 0x00000000)  returns 0x00 (0001ms, 12032ms total)
T3398 013:162 JLINK_WriteReg(R4, 0x00000000)  returns 0x00 (0000ms, 12032ms total)
T3398 013:162 JLINK_WriteReg(R5, 0x00000000)  returns 0x00 (0000ms, 12032ms total)
T3398 013:162 JLINK_WriteReg(R6, 0x00000000)  returns 0x00 (0000ms, 12032ms total)
T3398 013:162 JLINK_WriteReg(R7, 0x00000000)  returns 0x00 (0000ms, 12032ms total)
T3398 013:162 JLINK_WriteReg(R8, 0x00000000)  returns 0x00 (0001ms, 12033ms total)
T3398 013:163 JLINK_WriteReg(R9, 0x20000160)  returns 0x00 (0000ms, 12033ms total)
T3398 013:163 JLINK_WriteReg(R10, 0x00000000)  returns 0x00 (0000ms, 12033ms total)
T3398 013:163 JLINK_WriteReg(R11, 0x00000000)  returns 0x00 (0000ms, 12033ms total)
T3398 013:163 JLINK_WriteReg(R12, 0x00000000)  returns 0x00 (0000ms, 12033ms total)
T3398 013:164 JLINK_WriteReg(R13 (SP), 0x20001000)  returns 0x00 (0000ms, 12034ms total)
T3398 013:164 JLINK_WriteReg(R14, 0x20000001)  returns 0x00 (0000ms, 12034ms total)
T3398 013:164 JLINK_WriteReg(R15 (PC), 0x2000006A)  returns 0x00 (0000ms, 12034ms total)
T3398 013:164 JLINK_WriteReg(XPSR, 0x01000000)  returns 0x00 (0000ms, 12034ms total)
T3398 013:164 JLINK_WriteReg(MSP, 0x20001000)  returns 0x00 (0001ms, 12035ms total)
T3398 013:165 JLINK_WriteReg(PSP, 0x20001000)  returns 0x00 (0000ms, 12035ms total)
T3398 013:165 JLINK_WriteReg(CFBP, 0x00000000)  returns 0x00 (0000ms, 12035ms total)
T3398 013:165 JLINK_SetBPEx(Addr = 0x20000000, Type = 0xFFFFFFF2)  returns 0x00000003 (0001ms, 12036ms total)
T3398 013:166 JLINK_Go() (0002ms, 12038ms total)
T3398 013:168 JLINK_IsHalted() -- CPU_ReadMem(2 bytes @ 0x20000000)  returns TRUE (0005ms, 12043ms total)
T3398 013:173 JLINK_ReadReg(R15 (PC))  returns 0x20000000 (0000ms, 12038ms total)
T3398 013:174 JLINK_ClrBPEx(BPHandle = 0x00000003)  returns 0x00 (0000ms, 12039ms total)
T3398 013:174 JLINK_ReadReg(R0)  returns 0x00000000 (0000ms, 12039ms total)
T3398 013:191 JLINK_WriteMem(0x20000000, 0x0164 Bytes, ...) - Data: 00 BE 0A E0 0D 78 2D 06 68 40 08 24 40 00 00 D3 ... -- CPU_WriteMem(356 bytes @ 0x20000000)  returns 0x164 (0004ms, 12043ms total)
T3398 013:195 JLINK_WriteReg(R0, 0x08000000)  returns 0x00 (0000ms, 12043ms total)
T3398 013:195 JLINK_WriteReg(R1, 0x007A1200)  returns 0x00 (0000ms, 12043ms total)
T3398 013:195 JLINK_WriteReg(R2, 0x00000002)  returns 0x00 (0001ms, 12044ms total)
T3398 013:196 JLINK_WriteReg(R3, 0x00000000)  returns 0x00 (0000ms, 12044ms total)
T3398 013:196 JLINK_WriteReg(R4, 0x00000000)  returns 0x00 (0000ms, 12044ms total)
T3398 013:196 JLINK_WriteReg(R5, 0x00000000)  returns 0x00 (0000ms, 12044ms total)
T3398 013:196 JLINK_WriteReg(R6, 0x00000000)  returns 0x00 (0000ms, 12044ms total)
T3398 013:196 JLINK_WriteReg(R7, 0x00000000)  returns 0x00 (0001ms, 12045ms total)
T3398 013:197 JLINK_WriteReg(R8, 0x00000000)  returns 0x00 (0000ms, 12045ms total)
T3398 013:197 JLINK_WriteReg(R9, 0x20000160)  returns 0x00 (0000ms, 12045ms total)
T3398 013:197 JLINK_WriteReg(R10, 0x00000000)  returns 0x00 (0000ms, 12045ms total)
T3398 013:197 JLINK_WriteReg(R11, 0x00000000)  returns 0x00 (0001ms, 12046ms total)
T3398 013:198 JLINK_WriteReg(R12, 0x00000000)  returns 0x00 (0000ms, 12046ms total)
T3398 013:198 JLINK_WriteReg(R13 (SP), 0x20001000)  returns 0x00 (0000ms, 12046ms total)
T3398 013:198 JLINK_WriteReg(R14, 0x20000001)  returns 0x00 (0000ms, 12046ms total)
T3398 013:198 JLINK_WriteReg(R15 (PC), 0x20000038)  returns 0x00 (0001ms, 12047ms total)
T3398 013:199 JLINK_WriteReg(XPSR, 0x01000000)  returns 0x00 (0000ms, 12047ms total)
T3398 013:199 JLINK_WriteReg(MSP, 0x20001000)  returns 0x00 (0000ms, 12047ms total)
T3398 013:199 JLINK_WriteReg(PSP, 0x20001000)  returns 0x00 (0000ms, 12047ms total)
T3398 013:199 JLINK_WriteReg(CFBP, 0x00000000)  returns 0x00 (0000ms, 12047ms total)
T3398 013:199 JLINK_SetBPEx(Addr = 0x20000000, Type = 0xFFFFFFF2) -- CPU_ReadMem(2 bytes @ 0x20000000)  returns 0x00000004 (0002ms, 12049ms total)
T3398 013:201 JLINK_Go() -- CPU_WriteMem(2 bytes @ 0x20000000) (0004ms, 12053ms total)
T3398 013:205 JLINK_IsHalted() -- CPU_ReadMem(2 bytes @ 0x20000000)  returns TRUE (0005ms, 12058ms total)
T3398 013:210 JLINK_ReadReg(R15 (PC))  returns 0x20000000 (0000ms, 12053ms total)
T3398 013:210 JLINK_ClrBPEx(BPHandle = 0x00000004)  returns 0x00 (0000ms, 12053ms total)
T3398 013:210 JLINK_ReadReg(R0)  returns 0x00000000 (0000ms, 12053ms total)
T3398 013:211 JLINK_WriteMem(0x20000164, 0x0400 Bytes, ...) - Data: 60 F3 00 20 ED 01 00 08 0F 3F 00 08 35 1B 00 08 ... -- CPU_WriteMem(1024 bytes @ 0x20000164)  returns 0x400 (0008ms, 12061ms total)
T3398 013:219 JLINK_WriteReg(R0, 0x08000000)  returns 0x00 (0000ms, 12061ms total)
T3398 013:219 JLINK_WriteReg(R1, 0x00000400)  returns 0x00 (0000ms, 12061ms total)
T3398 013:219 JLINK_WriteReg(R2, 0x20000164)  returns 0x00 (0000ms, 12061ms total)
T3398 013:219 JLINK_WriteReg(R3, 0x00000000)  returns 0x00 (0001ms, 12062ms total)
T3398 013:220 JLINK_WriteReg(R4, 0x00000000)  returns 0x00 (0000ms, 12062ms total)
T3398 013:220 JLINK_WriteReg(R5, 0x00000000)  returns 0x00 (0000ms, 12062ms total)
T3398 013:220 JLINK_WriteReg(R6, 0x00000000)  returns 0x00 (0000ms, 12062ms total)
T3398 013:220 JLINK_WriteReg(R7, 0x00000000)  returns 0x00 (0000ms, 12062ms total)
T3398 013:220 JLINK_WriteReg(R8, 0x00000000)  returns 0x00 (0001ms, 12063ms total)
T3398 013:221 JLINK_WriteReg(R9, 0x20000160)  returns 0x00 (0000ms, 12063ms total)
T3398 013:221 JLINK_WriteReg(R10, 0x00000000)  returns 0x00 (0000ms, 12063ms total)
T3398 013:221 JLINK_WriteReg(R11, 0x00000000)  returns 0x00 (0000ms, 12063ms total)
T3398 013:222 JLINK_WriteReg(R12, 0x00000000)  returns 0x00 (0000ms, 12064ms total)
T3398 013:222 JLINK_WriteReg(R13 (SP), 0x20001000)  returns 0x00 (0000ms, 12064ms total)
T3398 013:222 JLINK_WriteReg(R14, 0x20000001)  returns 0x00 (0000ms, 12064ms total)
T3398 013:222 JLINK_WriteReg(R15 (PC), 0x200000F4)  returns 0x00 (0000ms, 12064ms total)
T3398 013:222 JLINK_WriteReg(XPSR, 0x01000000)  returns 0x00 (0000ms, 12064ms total)
T3398 013:223 JLINK_WriteReg(MSP, 0x20001000)  returns 0x00 (0000ms, 12065ms total)
T3398 013:223 JLINK_WriteReg(PSP, 0x20001000)  returns 0x00 (0000ms, 12065ms total)
T3398 013:223 JLINK_WriteReg(CFBP, 0x00000000)  returns 0x00 (0000ms, 12065ms total)
T3398 013:223 JLINK_SetBPEx(Addr = 0x20000000, Type = 0xFFFFFFF2)  returns 0x00000005 (0000ms, 12065ms total)
T3398 013:223 JLINK_Go() (0003ms, 12068ms total)
T3398 013:226 JLINK_IsHalted()  returns FALSE (0001ms, 12069ms total)
T3398 013:456 JLINK_IsHalted() -- CPU_ReadMem(2 bytes @ 0x20000000)  returns TRUE (0005ms, 12073ms total)
T3398 013:461 JLINK_ReadReg(R15 (PC))  returns 0x20000000 (0000ms, 12068ms total)
T3398 013:461 JLINK_ClrBPEx(BPHandle = 0x00000005)  returns 0x00 (0000ms, 12068ms total)
T3398 013:461 JLINK_ReadReg(R0)  returns 0x00000000 (0000ms, 12068ms total)
T3398 013:462 JLINK_WriteMem(0x20000164, 0x0400 Bytes, ...) - Data: 5F 46 20 46 E1 68 88 47 20 28 06 46 07 DB 31 2E ... -- CPU_WriteMem(1024 bytes @ 0x20000164)  returns 0x400 (0008ms, 12076ms total)
T3398 013:470 JLINK_WriteReg(R0, 0x08000400)  returns 0x00 (0000ms, 12076ms total)
T3398 013:470 JLINK_WriteReg(R1, 0x00000400)  returns 0x00 (0000ms, 12076ms total)
T3398 013:470 JLINK_WriteReg(R2, 0x20000164)  returns 0x00 (0000ms, 12076ms total)
T3398 013:470 JLINK_WriteReg(R3, 0x00000000)  returns 0x00 (0001ms, 12077ms total)
T3398 013:471 JLINK_WriteReg(R4, 0x00000000)  returns 0x00 (0000ms, 12077ms total)
T3398 013:471 JLINK_WriteReg(R5, 0x00000000)  returns 0x00 (0000ms, 12077ms total)
T3398 013:471 JLINK_WriteReg(R6, 0x00000000)  returns 0x00 (0000ms, 12077ms total)
T3398 013:471 JLINK_WriteReg(R7, 0x00000000)  returns 0x00 (0000ms, 12077ms total)
T3398 013:471 JLINK_WriteReg(R8, 0x00000000)  returns 0x00 (0000ms, 12077ms total)
T3398 013:471 JLINK_WriteReg(R9, 0x20000160)  returns 0x00 (0001ms, 12078ms total)
T3398 013:472 JLINK_WriteReg(R10, 0x00000000)  returns 0x00 (0000ms, 12078ms total)
T3398 013:472 JLINK_WriteReg(R11, 0x00000000)  returns 0x00 (0000ms, 12078ms total)
T3398 013:472 JLINK_WriteReg(R12, 0x00000000)  returns 0x00 (0000ms, 12078ms total)
T3398 013:472 JLINK_WriteReg(R13 (SP), 0x20001000)  returns 0x00 (0000ms, 12078ms total)
T3398 013:472 JLINK_WriteReg(R14, 0x20000001)  returns 0x00 (0000ms, 12078ms total)
T3398 013:472 JLINK_WriteReg(R15 (PC), 0x200000F4)  returns 0x00 (0001ms, 12079ms total)
T3398 013:473 JLINK_WriteReg(XPSR, 0x01000000)  returns 0x00 (0000ms, 12079ms total)
T3398 013:473 JLINK_WriteReg(MSP, 0x20001000)  returns 0x00 (0000ms, 12079ms total)
T3398 013:473 JLINK_WriteReg(PSP, 0x20001000)  returns 0x00 (0000ms, 12079ms total)
T3398 013:473 JLINK_WriteReg(CFBP, 0x00000000)  returns 0x00 (0000ms, 12079ms total)
T3398 013:473 JLINK_SetBPEx(Addr = 0x20000000, Type = 0xFFFFFFF2)  returns 0x00000006 (0000ms, 12079ms total)
T3398 013:473 JLINK_Go() (0003ms, 12082ms total)
T3398 013:476 JLINK_IsHalted()  returns FALSE (0001ms, 12083ms total)
T3398 013:760 JLINK_IsHalted() -- CPU_ReadMem(2 bytes @ 0x20000000)  returns TRUE (0004ms, 12086ms total)
T3398 013:764 JLINK_ReadReg(R15 (PC))  returns 0x20000000 (0000ms, 12082ms total)
T3398 013:764 JLINK_ClrBPEx(BPHandle = 0x00000006)  returns 0x00 (0000ms, 12082ms total)
T3398 013:764 JLINK_ReadReg(R0)  returns 0x00000000 (0001ms, 12083ms total)
T3398 013:766 JLINK_WriteMem(0x20000164, 0x0400 Bytes, ...) - Data: 4F F0 00 00 4F F0 00 01 AF F3 00 80 BD E8 1C 40 ... -- CPU_WriteMem(1024 bytes @ 0x20000164)  returns 0x400 (0009ms, 12092ms total)
T3398 013:775 JLINK_WriteReg(R0, 0x08000800)  returns 0x00 (0000ms, 12092ms total)
T3398 013:775 JLINK_WriteReg(R1, 0x00000400)  returns 0x00 (0000ms, 12092ms total)
T3398 013:775 JLINK_WriteReg(R2, 0x20000164)  returns 0x00 (0000ms, 12092ms total)
T3398 013:775 JLINK_WriteReg(R3, 0x00000000)  returns 0x00 (0000ms, 12092ms total)
T3398 013:775 JLINK_WriteReg(R4, 0x00000000)  returns 0x00 (0000ms, 12092ms total)
T3398 013:776 JLINK_WriteReg(R5, 0x00000000)  returns 0x00 (0000ms, 12093ms total)
T3398 013:776 JLINK_WriteReg(R6, 0x00000000)  returns 0x00 (0000ms, 12093ms total)
T3398 013:776 JLINK_WriteReg(R7, 0x00000000)  returns 0x00 (0000ms, 12093ms total)
T3398 013:776 JLINK_WriteReg(R8, 0x00000000)  returns 0x00 (0000ms, 12093ms total)
T3398 013:776 JLINK_WriteReg(R9, 0x20000160)  returns 0x00 (0000ms, 12093ms total)
T3398 013:776 JLINK_WriteReg(R10, 0x00000000)  returns 0x00 (0000ms, 12093ms total)
T3398 013:777 JLINK_WriteReg(R11, 0x00000000)  returns 0x00 (0000ms, 12094ms total)
T3398 013:777 JLINK_WriteReg(R12, 0x00000000)  returns 0x00 (0000ms, 12094ms total)
T3398 013:777 JLINK_WriteReg(R13 (SP), 0x20001000)  returns 0x00 (0000ms, 12094ms total)
T3398 013:777 JLINK_WriteReg(R14, 0x20000001)  returns 0x00 (0000ms, 12094ms total)
T3398 013:777 JLINK_WriteReg(R15 (PC), 0x200000F4)  returns 0x00 (0000ms, 12094ms total)
T3398 013:777 JLINK_WriteReg(XPSR, 0x01000000)  returns 0x00 (0001ms, 12095ms total)
T3398 013:778 JLINK_WriteReg(MSP, 0x20001000)  returns 0x00 (0000ms, 12095ms total)
T3398 013:778 JLINK_WriteReg(PSP, 0x20001000)  returns 0x00 (0000ms, 12095ms total)
T3398 013:778 JLINK_WriteReg(CFBP, 0x00000000)  returns 0x00 (0000ms, 12095ms total)
T3398 013:778 JLINK_SetBPEx(Addr = 0x20000000, Type = 0xFFFFFFF2)  returns 0x00000007 (0000ms, 12095ms total)
T3398 013:778 JLINK_Go() (0003ms, 12098ms total)
T3398 013:781 JLINK_IsHalted()  returns FALSE (0001ms, 12099ms total)
T3398 013:791 JLINK_IsHalted()  returns FALSE (0001ms, 12099ms total)
T3398 013:794 JLINK_IsHalted()  returns FALSE (0001ms, 12099ms total)
T3398 013:797 JLINK_IsHalted()  returns FALSE (0001ms, 12099ms total)
T3398 013:803 JLINK_IsHalted()  returns FALSE (0001ms, 12099ms total)
T3398 013:806 JLINK_IsHalted()  returns FALSE (0001ms, 12099ms total)
T3398 013:809 JLINK_IsHalted()  returns FALSE (0001ms, 12099ms total)
T3398 013:812 JLINK_IsHalted() -- CPU_ReadMem(2 bytes @ 0x20000000)  returns TRUE (0004ms, 12102ms total)
T3398 013:817 JLINK_ReadReg(R15 (PC))  returns 0x20000000 (0000ms, 12098ms total)
T3398 013:817 JLINK_ClrBPEx(BPHandle = 0x00000007)  returns 0x00 (0000ms, 12098ms total)
T3398 013:817 JLINK_ReadReg(R0)  returns 0x00000000 (0000ms, 12098ms total)
T3398 013:818 JLINK_WriteMem(0x20000164, 0x0400 Bytes, ...) - Data: 75 FA 00 21 10 22 D8 48 13 46 CD E9 01 21 00 90 ... -- CPU_WriteMem(1024 bytes @ 0x20000164)  returns 0x400 (0008ms, 12106ms total)
T3398 013:826 JLINK_WriteReg(R0, 0x08000C00)  returns 0x00 (0000ms, 12106ms total)
T3398 013:826 JLINK_WriteReg(R1, 0x00000400)  returns 0x00 (0000ms, 12106ms total)
T3398 013:826 JLINK_WriteReg(R2, 0x20000164)  returns 0x00 (0001ms, 12107ms total)
T3398 013:827 JLINK_WriteReg(R3, 0x00000000)  returns 0x00 (0000ms, 12107ms total)
T3398 013:827 JLINK_WriteReg(R4, 0x00000000)  returns 0x00 (0000ms, 12107ms total)
T3398 013:827 JLINK_WriteReg(R5, 0x00000000)  returns 0x00 (0000ms, 12107ms total)
T3398 013:827 JLINK_WriteReg(R6, 0x00000000)  returns 0x00 (0000ms, 12107ms total)
T3398 013:827 JLINK_WriteReg(R7, 0x00000000)  returns 0x00 (0001ms, 12108ms total)
T3398 013:828 JLINK_WriteReg(R8, 0x00000000)  returns 0x00 (0000ms, 12108ms total)
T3398 013:828 JLINK_WriteReg(R9, 0x20000160)  returns 0x00 (0000ms, 12108ms total)
T3398 013:828 JLINK_WriteReg(R10, 0x00000000)  returns 0x00 (0000ms, 12108ms total)
T3398 013:828 JLINK_WriteReg(R11, 0x00000000)  returns 0x00 (0000ms, 12108ms total)
T3398 013:828 JLINK_WriteReg(R12, 0x00000000)  returns 0x00 (0000ms, 12108ms total)
T3398 013:829 JLINK_WriteReg(R13 (SP), 0x20001000)  returns 0x00 (0000ms, 12109ms total)
T3398 013:829 JLINK_WriteReg(R14, 0x20000001)  returns 0x00 (0000ms, 12109ms total)
T3398 013:829 JLINK_WriteReg(R15 (PC), 0x200000F4)  returns 0x00 (0000ms, 12109ms total)
T3398 013:829 JLINK_WriteReg(XPSR, 0x01000000)  returns 0x00 (0001ms, 12110ms total)
T3398 013:830 JLINK_WriteReg(MSP, 0x20001000)  returns 0x00 (0000ms, 12110ms total)
T3398 013:830 JLINK_WriteReg(PSP, 0x20001000)  returns 0x00 (0000ms, 12110ms total)
T3398 013:830 JLINK_WriteReg(CFBP, 0x00000000)  returns 0x00 (0000ms, 12110ms total)
T3398 013:830 JLINK_SetBPEx(Addr = 0x20000000, Type = 0xFFFFFFF2)  returns 0x00000008 (0000ms, 12110ms total)
T3398 013:830 JLINK_Go() (0003ms, 12113ms total)
T3398 013:833 JLINK_IsHalted()  returns FALSE (0001ms, 12114ms total)
T3398 013:845 JLINK_IsHalted()  returns FALSE (0001ms, 12114ms total)
T3398 013:852 JLINK_IsHalted()  returns FALSE (0001ms, 12114ms total)
T3398 013:855 JLINK_IsHalted()  returns FALSE (0001ms, 12114ms total)
T3398 013:858 JLINK_IsHalted()  returns FALSE (0001ms, 12114ms total)
T3398 013:860 JLINK_IsHalted()  returns FALSE (0001ms, 12114ms total)
T3398 013:866 JLINK_IsHalted() -- CPU_ReadMem(2 bytes @ 0x20000000)  returns TRUE (0004ms, 12117ms total)
T3398 013:870 JLINK_ReadReg(R15 (PC))  returns 0x20000000 (0000ms, 12113ms total)
T3398 013:870 JLINK_ClrBPEx(BPHandle = 0x00000008)  returns 0x00 (0001ms, 12114ms total)
T3398 013:871 JLINK_ReadReg(R0)  returns 0x00000000 (0000ms, 12114ms total)
T3398 013:872 JLINK_WriteMem(0x20000164, 0x0400 Bytes, ...) - Data: 0F F9 10 BD 52 65 63 65 69 76 65 2E 74 78 74 00 ... -- CPU_WriteMem(1024 bytes @ 0x20000164)  returns 0x400 (0007ms, 12121ms total)
T3398 013:879 JLINK_WriteReg(R0, 0x08001000)  returns 0x00 (0001ms, 12122ms total)
T3398 013:880 JLINK_WriteReg(R1, 0x00000400)  returns 0x00 (0000ms, 12122ms total)
T3398 013:880 JLINK_WriteReg(R2, 0x20000164)  returns 0x00 (0000ms, 12122ms total)
T3398 013:880 JLINK_WriteReg(R3, 0x00000000)  returns 0x00 (0000ms, 12122ms total)
T3398 013:880 JLINK_WriteReg(R4, 0x00000000)  returns 0x00 (0001ms, 12123ms total)
T3398 013:881 JLINK_WriteReg(R5, 0x00000000)  returns 0x00 (0000ms, 12123ms total)
T3398 013:881 JLINK_WriteReg(R6, 0x00000000)  returns 0x00 (0000ms, 12123ms total)
T3398 013:881 JLINK_WriteReg(R7, 0x00000000)  returns 0x00 (0000ms, 12123ms total)
T3398 013:881 JLINK_WriteReg(R8, 0x00000000)  returns 0x00 (0000ms, 12123ms total)
T3398 013:881 JLINK_WriteReg(R9, 0x20000160)  returns 0x00 (0001ms, 12124ms total)
T3398 013:882 JLINK_WriteReg(R10, 0x00000000)  returns 0x00 (0000ms, 12124ms total)
T3398 013:882 JLINK_WriteReg(R11, 0x00000000)  returns 0x00 (0000ms, 12124ms total)
T3398 013:882 JLINK_WriteReg(R12, 0x00000000)  returns 0x00 (0000ms, 12124ms total)
T3398 013:882 JLINK_WriteReg(R13 (SP), 0x20001000)  returns 0x00 (0000ms, 12124ms total)
T3398 013:882 JLINK_WriteReg(R14, 0x20000001)  returns 0x00 (0001ms, 12125ms total)
T3398 013:883 JLINK_WriteReg(R15 (PC), 0x200000F4)  returns 0x00 (0000ms, 12125ms total)
T3398 013:883 JLINK_WriteReg(XPSR, 0x01000000)  returns 0x00 (0000ms, 12125ms total)
T3398 013:883 JLINK_WriteReg(MSP, 0x20001000)  returns 0x00 (0000ms, 12125ms total)
T3398 013:883 JLINK_WriteReg(PSP, 0x20001000)  returns 0x00 (0000ms, 12125ms total)
T3398 013:883 JLINK_WriteReg(CFBP, 0x00000000)  returns 0x00 (0001ms, 12126ms total)
T3398 013:884 JLINK_SetBPEx(Addr = 0x20000000, Type = 0xFFFFFFF2)  returns 0x00000009 (0000ms, 12126ms total)
T3398 013:884 JLINK_Go() (0002ms, 12128ms total)
T3398 013:886 JLINK_IsHalted()  returns FALSE (0001ms, 12129ms total)
T3398 013:892 JLINK_IsHalted()  returns FALSE (0001ms, 12129ms total)
T3398 013:895 JLINK_IsHalted()  returns FALSE (0001ms, 12129ms total)
T3398 013:902 JLINK_IsHalted()  returns FALSE (0001ms, 12129ms total)
T3398 013:908 JLINK_IsHalted()  returns FALSE (0001ms, 12129ms total)
T3398 013:911 JLINK_IsHalted()  returns FALSE (0001ms, 12129ms total)
T3398 013:914 JLINK_IsHalted()  returns FALSE (0001ms, 12129ms total)
T3398 013:917 JLINK_IsHalted() -- CPU_ReadMem(2 bytes @ 0x20000000)  returns TRUE (0004ms, 12132ms total)
T3398 013:921 JLINK_ReadReg(R15 (PC))  returns 0x20000000 (0000ms, 12128ms total)
T3398 013:921 JLINK_ClrBPEx(BPHandle = 0x00000009)  returns 0x00 (0000ms, 12128ms total)
T3398 013:922 JLINK_ReadReg(R0)  returns 0x00000000 (0000ms, 12128ms total)
T3398 013:923 JLINK_WriteMem(0x20000164, 0x0400 Bytes, ...) - Data: C0 42 12 68 03 4B 1A 40 83 00 A3 F1 C0 43 1A 60 ... -- CPU_WriteMem(1024 bytes @ 0x20000164)  returns 0x400 (0007ms, 12135ms total)
T3398 013:930 JLINK_WriteReg(R0, 0x08001400)  returns 0x00 (0000ms, 12135ms total)
T3398 013:930 JLINK_WriteReg(R1, 0x00000400)  returns 0x00 (0001ms, 12136ms total)
T3398 013:931 JLINK_WriteReg(R2, 0x20000164)  returns 0x00 (0000ms, 12136ms total)
T3398 013:931 JLINK_WriteReg(R3, 0x00000000)  returns 0x00 (0000ms, 12136ms total)
T3398 013:931 JLINK_WriteReg(R4, 0x00000000)  returns 0x00 (0000ms, 12136ms total)
T3398 013:931 JLINK_WriteReg(R5, 0x00000000)  returns 0x00 (0000ms, 12136ms total)
T3398 013:931 JLINK_WriteReg(R6, 0x00000000)  returns 0x00 (0001ms, 12137ms total)
T3398 013:932 JLINK_WriteReg(R7, 0x00000000)  returns 0x00 (0000ms, 12137ms total)
T3398 013:932 JLINK_WriteReg(R8, 0x00000000)  returns 0x00 (0000ms, 12137ms total)
T3398 013:932 JLINK_WriteReg(R9, 0x20000160)  returns 0x00 (0000ms, 12137ms total)
T3398 013:932 JLINK_WriteReg(R10, 0x00000000)  returns 0x00 (0000ms, 12137ms total)
T3398 013:932 JLINK_WriteReg(R11, 0x00000000)  returns 0x00 (0000ms, 12137ms total)
T3398 013:933 JLINK_WriteReg(R12, 0x00000000)  returns 0x00 (0000ms, 12138ms total)
T3398 013:933 JLINK_WriteReg(R13 (SP), 0x20001000)  returns 0x00 (0000ms, 12138ms total)
T3398 013:933 JLINK_WriteReg(R14, 0x20000001)  returns 0x00 (0000ms, 12138ms total)
T3398 013:933 JLINK_WriteReg(R15 (PC), 0x200000F4)  returns 0x00 (0000ms, 12138ms total)
T3398 013:933 JLINK_WriteReg(XPSR, 0x01000000)  returns 0x00 (0000ms, 12138ms total)
T3398 013:933 JLINK_WriteReg(MSP, 0x20001000)  returns 0x00 (0001ms, 12139ms total)
T3398 013:934 JLINK_WriteReg(PSP, 0x20001000)  returns 0x00 (0000ms, 12139ms total)
T3398 013:934 JLINK_WriteReg(CFBP, 0x00000000)  returns 0x00 (0000ms, 12139ms total)
T3398 013:934 JLINK_SetBPEx(Addr = 0x20000000, Type = 0xFFFFFFF2)  returns 0x0000000A (0000ms, 12139ms total)
T3398 013:934 JLINK_Go() (0002ms, 12141ms total)
T3398 013:937 JLINK_IsHalted()  returns FALSE (0001ms, 12143ms total)
T3398 013:946 JLINK_IsHalted()  returns FALSE (0001ms, 12143ms total)
T3398 013:949 JLINK_IsHalted()  returns FALSE (0001ms, 12143ms total)
T3398 013:966 JLINK_IsHalted()  returns FALSE (0001ms, 12143ms total)
T3398 013:972 JLINK_IsHalted() -- CPU_ReadMem(2 bytes @ 0x20000000)  returns TRUE (0005ms, 12147ms total)
T3398 013:977 JLINK_ReadReg(R15 (PC))  returns 0x20000000 (0000ms, 12142ms total)
T3398 013:977 JLINK_ClrBPEx(BPHandle = 0x0000000A)  returns 0x00 (0000ms, 12142ms total)
T3398 013:977 JLINK_ReadReg(R0)  returns 0x00000000 (0000ms, 12142ms total)
T3398 013:978 JLINK_WriteMem(0x20000164, 0x0400 Bytes, ...) - Data: 41 F0 70 61 06 E0 46 0D 36 01 03 FA 06 F6 B1 43 ... -- CPU_WriteMem(1024 bytes @ 0x20000164)  returns 0x400 (0008ms, 12150ms total)
T3398 013:986 JLINK_WriteReg(R0, 0x08001800)  returns 0x00 (0000ms, 12150ms total)
T3398 013:986 JLINK_WriteReg(R1, 0x00000400)  returns 0x00 (0000ms, 12150ms total)
T3398 013:986 JLINK_WriteReg(R2, 0x20000164)  returns 0x00 (0000ms, 12150ms total)
T3398 013:986 JLINK_WriteReg(R3, 0x00000000)  returns 0x00 (0000ms, 12150ms total)
T3398 013:986 JLINK_WriteReg(R4, 0x00000000)  returns 0x00 (0001ms, 12151ms total)
T3398 013:987 JLINK_WriteReg(R5, 0x00000000)  returns 0x00 (0000ms, 12151ms total)
T3398 013:987 JLINK_WriteReg(R6, 0x00000000)  returns 0x00 (0000ms, 12151ms total)
T3398 013:987 JLINK_WriteReg(R7, 0x00000000)  returns 0x00 (0000ms, 12151ms total)
T3398 013:987 JLINK_WriteReg(R8, 0x00000000)  returns 0x00 (0000ms, 12151ms total)
T3398 013:987 JLINK_WriteReg(R9, 0x20000160)  returns 0x00 (0000ms, 12151ms total)
T3398 013:987 JLINK_WriteReg(R10, 0x00000000)  returns 0x00 (0001ms, 12152ms total)
T3398 013:988 JLINK_WriteReg(R11, 0x00000000)  returns 0x00 (0000ms, 12152ms total)
T3398 013:988 JLINK_WriteReg(R12, 0x00000000)  returns 0x00 (0000ms, 12152ms total)
T3398 013:988 JLINK_WriteReg(R13 (SP), 0x20001000)  returns 0x00 (0000ms, 12152ms total)
T3398 013:988 JLINK_WriteReg(R14, 0x20000001)  returns 0x00 (0000ms, 12152ms total)
T3398 013:988 JLINK_WriteReg(R15 (PC), 0x200000F4)  returns 0x00 (0000ms, 12152ms total)
T3398 013:988 JLINK_WriteReg(XPSR, 0x01000000)  returns 0x00 (0001ms, 12153ms total)
T3398 013:989 JLINK_WriteReg(MSP, 0x20001000)  returns 0x00 (0000ms, 12153ms total)
T3398 013:989 JLINK_WriteReg(PSP, 0x20001000)  returns 0x00 (0000ms, 12153ms total)
T3398 013:989 JLINK_WriteReg(CFBP, 0x00000000)  returns 0x00 (0000ms, 12153ms total)
T3398 013:989 JLINK_SetBPEx(Addr = 0x20000000, Type = 0xFFFFFFF2)  returns 0x0000000B (0000ms, 12153ms total)
T3398 013:989 JLINK_Go() (0003ms, 12156ms total)
T3398 013:992 JLINK_IsHalted()  returns FALSE (0001ms, 12157ms total)
T3398 014:005 JLINK_IsHalted()  returns FALSE (0001ms, 12157ms total)
T3398 014:008 JLINK_IsHalted()  returns FALSE (0001ms, 12157ms total)
T3398 014:011 JLINK_IsHalted()  returns FALSE (0001ms, 12157ms total)
T3398 014:014 JLINK_IsHalted()  returns FALSE (0001ms, 12157ms total)
T3398 014:017 JLINK_IsHalted()  returns FALSE (0001ms, 12157ms total)
T3398 014:020 JLINK_IsHalted()  returns FALSE (0001ms, 12157ms total)
T3398 014:023 JLINK_IsHalted() -- CPU_ReadMem(2 bytes @ 0x20000000)  returns TRUE (0004ms, 12160ms total)
T3398 014:027 JLINK_ReadReg(R15 (PC))  returns 0x20000000 (0000ms, 12156ms total)
T3398 014:027 JLINK_ClrBPEx(BPHandle = 0x0000000B)  returns 0x00 (0000ms, 12156ms total)
T3398 014:027 JLINK_ReadReg(R0)  returns 0x00000000 (0000ms, 12156ms total)
T3398 014:029 JLINK_WriteMem(0x20000164, 0x0400 Bytes, ...) - Data: 20 49 08 60 0D 20 48 60 40 20 88 60 00 20 C8 60 ... -- CPU_WriteMem(1024 bytes @ 0x20000164)  returns 0x400 (0007ms, 12164ms total)
T3398 014:036 JLINK_WriteReg(R0, 0x08001C00)  returns 0x00 (0000ms, 12164ms total)
T3398 014:036 JLINK_WriteReg(R1, 0x00000400)  returns 0x00 (0000ms, 12164ms total)
T3398 014:036 JLINK_WriteReg(R2, 0x20000164)  returns 0x00 (0001ms, 12165ms total)
T3398 014:037 JLINK_WriteReg(R3, 0x00000000)  returns 0x00 (0000ms, 12165ms total)
T3398 014:037 JLINK_WriteReg(R4, 0x00000000)  returns 0x00 (0000ms, 12165ms total)
T3398 014:037 JLINK_WriteReg(R5, 0x00000000)  returns 0x00 (0000ms, 12165ms total)
T3398 014:037 JLINK_WriteReg(R6, 0x00000000)  returns 0x00 (0000ms, 12165ms total)
T3398 014:038 JLINK_WriteReg(R7, 0x00000000)  returns 0x00 (0000ms, 12166ms total)
T3398 014:038 JLINK_WriteReg(R8, 0x00000000)  returns 0x00 (0000ms, 12166ms total)
T3398 014:038 JLINK_WriteReg(R9, 0x20000160)  returns 0x00 (0000ms, 12166ms total)
T3398 014:038 JLINK_WriteReg(R10, 0x00000000)  returns 0x00 (0000ms, 12166ms total)
T3398 014:038 JLINK_WriteReg(R11, 0x00000000)  returns 0x00 (0000ms, 12166ms total)
T3398 014:038 JLINK_WriteReg(R12, 0x00000000)  returns 0x00 (0001ms, 12167ms total)
T3398 014:039 JLINK_WriteReg(R13 (SP), 0x20001000)  returns 0x00 (0000ms, 12167ms total)
T3398 014:039 JLINK_WriteReg(R14, 0x20000001)  returns 0x00 (0000ms, 12167ms total)
T3398 014:039 JLINK_WriteReg(R15 (PC), 0x200000F4)  returns 0x00 (0000ms, 12167ms total)
T3398 014:039 JLINK_WriteReg(XPSR, 0x01000000)  returns 0x00 (0000ms, 12167ms total)
T3398 014:039 JLINK_WriteReg(MSP, 0x20001000)  returns 0x00 (0000ms, 12167ms total)
T3398 014:039 JLINK_WriteReg(PSP, 0x20001000)  returns 0x00 (0001ms, 12168ms total)
T3398 014:040 JLINK_WriteReg(CFBP, 0x00000000)  returns 0x00 (0000ms, 12168ms total)
T3398 014:040 JLINK_SetBPEx(Addr = 0x20000000, Type = 0xFFFFFFF2)  returns 0x0000000C (0000ms, 12168ms total)
T3398 014:040 JLINK_Go() (0002ms, 12170ms total)
T3398 014:042 JLINK_IsHalted()  returns FALSE (0001ms, 12171ms total)
T3398 014:049 JLINK_IsHalted()  returns FALSE (0001ms, 12171ms total)
T3398 014:052 JLINK_IsHalted()  returns FALSE (0001ms, 12171ms total)
T3398 014:055 JLINK_IsHalted()  returns FALSE (0001ms, 12171ms total)
T3398 014:062 JLINK_IsHalted()  returns FALSE (0001ms, 12171ms total)
T3398 014:064 JLINK_IsHalted()  returns FALSE (0001ms, 12171ms total)
T3398 014:067 JLINK_IsHalted()  returns FALSE (0001ms, 12171ms total)
T3398 014:070 JLINK_IsHalted()  returns FALSE (0000ms, 12170ms total)
T3398 014:076 JLINK_IsHalted() -- CPU_ReadMem(2 bytes @ 0x20000000)  returns TRUE (0004ms, 12174ms total)
T3398 014:080 JLINK_ReadReg(R15 (PC))  returns 0x20000000 (0000ms, 12170ms total)
T3398 014:080 JLINK_ClrBPEx(BPHandle = 0x0000000C)  returns 0x00 (0000ms, 12170ms total)
T3398 014:080 JLINK_ReadReg(R0)  returns 0x00000000 (0000ms, 12170ms total)
T3398 014:081 JLINK_WriteMem(0x20000164, 0x0400 Bytes, ...) - Data: 02 90 03 20 03 90 00 20 04 90 05 90 06 90 07 90 ... -- CPU_WriteMem(1024 bytes @ 0x20000164)  returns 0x400 (0008ms, 12178ms total)
T3398 014:089 JLINK_WriteReg(R0, 0x08002000)  returns 0x00 (0000ms, 12178ms total)
T3398 014:089 JLINK_WriteReg(R1, 0x00000400)  returns 0x00 (0000ms, 12178ms total)
T3398 014:089 JLINK_WriteReg(R2, 0x20000164)  returns 0x00 (0000ms, 12178ms total)
T3398 014:089 JLINK_WriteReg(R3, 0x00000000)  returns 0x00 (0001ms, 12179ms total)
T3398 014:090 JLINK_WriteReg(R4, 0x00000000)  returns 0x00 (0000ms, 12179ms total)
T3398 014:090 JLINK_WriteReg(R5, 0x00000000)  returns 0x00 (0000ms, 12179ms total)
T3398 014:090 JLINK_WriteReg(R6, 0x00000000)  returns 0x00 (0000ms, 12179ms total)
T3398 014:090 JLINK_WriteReg(R7, 0x00000000)  returns 0x00 (0000ms, 12179ms total)
T3398 014:090 JLINK_WriteReg(R8, 0x00000000)  returns 0x00 (0000ms, 12179ms total)
T3398 014:090 JLINK_WriteReg(R9, 0x20000160)  returns 0x00 (0001ms, 12180ms total)
T3398 014:091 JLINK_WriteReg(R10, 0x00000000)  returns 0x00 (0000ms, 12180ms total)
T3398 014:091 JLINK_WriteReg(R11, 0x00000000)  returns 0x00 (0000ms, 12180ms total)
T3398 014:091 JLINK_WriteReg(R12, 0x00000000)  returns 0x00 (0000ms, 12180ms total)
T3398 014:091 JLINK_WriteReg(R13 (SP), 0x20001000)  returns 0x00 (0000ms, 12180ms total)
T3398 014:091 JLINK_WriteReg(R14, 0x20000001)  returns 0x00 (0000ms, 12180ms total)
T3398 014:091 JLINK_WriteReg(R15 (PC), 0x200000F4)  returns 0x00 (0001ms, 12181ms total)
T3398 014:092 JLINK_WriteReg(XPSR, 0x01000000)  returns 0x00 (0000ms, 12181ms total)
T3398 014:092 JLINK_WriteReg(MSP, 0x20001000)  returns 0x00 (0000ms, 12181ms total)
T3398 014:092 JLINK_WriteReg(PSP, 0x20001000)  returns 0x00 (0000ms, 12181ms total)
T3398 014:092 JLINK_WriteReg(CFBP, 0x00000000)  returns 0x00 (0000ms, 12181ms total)
T3398 014:092 JLINK_SetBPEx(Addr = 0x20000000, Type = 0xFFFFFFF2)  returns 0x0000000D (0000ms, 12181ms total)
T3398 014:093 JLINK_Go() (0002ms, 12184ms total)
T3398 014:095 JLINK_IsHalted()  returns FALSE (0001ms, 12185ms total)
T3398 014:109 JLINK_IsHalted()  returns FALSE (0001ms, 12185ms total)
T3398 014:115 JLINK_IsHalted()  returns FALSE (0001ms, 12185ms total)
T3398 014:118 JLINK_IsHalted()  returns FALSE (0001ms, 12185ms total)
T3398 014:126 JLINK_IsHalted() -- CPU_ReadMem(2 bytes @ 0x20000000)  returns TRUE (0004ms, 12188ms total)
T3398 014:130 JLINK_ReadReg(R15 (PC))  returns 0x20000000 (0000ms, 12184ms total)
T3398 014:130 JLINK_ClrBPEx(BPHandle = 0x0000000D)  returns 0x00 (0000ms, 12184ms total)
T3398 014:131 JLINK_ReadReg(R0)  returns 0x00000000 (0000ms, 12185ms total)
T3398 014:132 JLINK_WriteMem(0x20000164, 0x0400 Bytes, ...) - Data: 03 20 01 F0 35 FD C8 20 01 F0 38 FD 00 20 01 F0 ... -- CPU_WriteMem(1024 bytes @ 0x20000164)  returns 0x400 (0008ms, 12193ms total)
T3398 014:140 JLINK_WriteReg(R0, 0x08002400)  returns 0x00 (0000ms, 12193ms total)
T3398 014:140 JLINK_WriteReg(R1, 0x00000400)  returns 0x00 (0000ms, 12193ms total)
T3398 014:140 JLINK_WriteReg(R2, 0x20000164)  returns 0x00 (0001ms, 12194ms total)
T3398 014:141 JLINK_WriteReg(R3, 0x00000000)  returns 0x00 (0000ms, 12194ms total)
T3398 014:141 JLINK_WriteReg(R4, 0x00000000)  returns 0x00 (0000ms, 12194ms total)
T3398 014:141 JLINK_WriteReg(R5, 0x00000000)  returns 0x00 (0000ms, 12194ms total)
T3398 014:141 JLINK_WriteReg(R6, 0x00000000)  returns 0x00 (0000ms, 12194ms total)
T3398 014:141 JLINK_WriteReg(R7, 0x00000000)  returns 0x00 (0000ms, 12194ms total)
T3398 014:141 JLINK_WriteReg(R8, 0x00000000)  returns 0x00 (0001ms, 12195ms total)
T3398 014:142 JLINK_WriteReg(R9, 0x20000160)  returns 0x00 (0000ms, 12195ms total)
T3398 014:142 JLINK_WriteReg(R10, 0x00000000)  returns 0x00 (0000ms, 12195ms total)
T3398 014:142 JLINK_WriteReg(R11, 0x00000000)  returns 0x00 (0000ms, 12195ms total)
T3398 014:142 JLINK_WriteReg(R12, 0x00000000)  returns 0x00 (0000ms, 12195ms total)
T3398 014:142 JLINK_WriteReg(R13 (SP), 0x20001000)  returns 0x00 (0001ms, 12196ms total)
T3398 014:143 JLINK_WriteReg(R14, 0x20000001)  returns 0x00 (0000ms, 12196ms total)
T3398 014:143 JLINK_WriteReg(R15 (PC), 0x200000F4)  returns 0x00 (0000ms, 12196ms total)
T3398 014:143 JLINK_WriteReg(XPSR, 0x01000000)  returns 0x00 (0000ms, 12196ms total)
T3398 014:143 JLINK_WriteReg(MSP, 0x20001000)  returns 0x00 (0000ms, 12196ms total)
T3398 014:143 JLINK_WriteReg(PSP, 0x20001000)  returns 0x00 (0001ms, 12197ms total)
T3398 014:144 JLINK_WriteReg(CFBP, 0x00000000)  returns 0x00 (0000ms, 12197ms total)
T3398 014:144 JLINK_SetBPEx(Addr = 0x20000000, Type = 0xFFFFFFF2)  returns 0x0000000E (0000ms, 12197ms total)
T3398 014:144 JLINK_Go() (0002ms, 12199ms total)
T3398 014:147 JLINK_IsHalted()  returns FALSE (0001ms, 12200ms total)
T3398 014:157 JLINK_IsHalted()  returns FALSE (0001ms, 12200ms total)
T3398 014:164 JLINK_IsHalted()  returns FALSE (0001ms, 12200ms total)
T3398 014:166 JLINK_IsHalted()  returns FALSE (0001ms, 12200ms total)
T3398 014:172 JLINK_IsHalted()  returns FALSE (0001ms, 12200ms total)
T3398 014:175 JLINK_IsHalted()  returns FALSE (0001ms, 12200ms total)
T3398 014:178 JLINK_IsHalted() -- CPU_ReadMem(2 bytes @ 0x20000000)  returns TRUE (0004ms, 12203ms total)
T3398 014:182 JLINK_ReadReg(R15 (PC))  returns 0x20000000 (0000ms, 12199ms total)
T3398 014:182 JLINK_ClrBPEx(BPHandle = 0x0000000E)  returns 0x00 (0001ms, 12200ms total)
T3398 014:183 JLINK_ReadReg(R0)  returns 0x00000000 (0000ms, 12200ms total)
T3398 014:184 JLINK_WriteMem(0x20000164, 0x0400 Bytes, ...) - Data: 32 20 06 F0 5B FF 00 21 50 20 01 F0 47 FB EF 21 ... -- CPU_WriteMem(1024 bytes @ 0x20000164)  returns 0x400 (0007ms, 12207ms total)
T3398 014:192 JLINK_WriteReg(R0, 0x08002800)  returns 0x00 (0000ms, 12208ms total)
T3398 014:192 JLINK_WriteReg(R1, 0x00000400)  returns 0x00 (0000ms, 12208ms total)
T3398 014:192 JLINK_WriteReg(R2, 0x20000164)  returns 0x00 (0000ms, 12208ms total)
T3398 014:192 JLINK_WriteReg(R3, 0x00000000)  returns 0x00 (0000ms, 12208ms total)
T3398 014:192 JLINK_WriteReg(R4, 0x00000000)  returns 0x00 (0000ms, 12208ms total)
T3398 014:192 JLINK_WriteReg(R5, 0x00000000)  returns 0x00 (0001ms, 12209ms total)
T3398 014:193 JLINK_WriteReg(R6, 0x00000000)  returns 0x00 (0000ms, 12209ms total)
T3398 014:193 JLINK_WriteReg(R7, 0x00000000)  returns 0x00 (0000ms, 12209ms total)
T3398 014:193 JLINK_WriteReg(R8, 0x00000000)  returns 0x00 (0000ms, 12209ms total)
T3398 014:193 JLINK_WriteReg(R9, 0x20000160)  returns 0x00 (0000ms, 12209ms total)
T3398 014:193 JLINK_WriteReg(R10, 0x00000000)  returns 0x00 (0000ms, 12209ms total)
T3398 014:193 JLINK_WriteReg(R11, 0x00000000)  returns 0x00 (0001ms, 12210ms total)
T3398 014:194 JLINK_WriteReg(R12, 0x00000000)  returns 0x00 (0000ms, 12210ms total)
T3398 014:194 JLINK_WriteReg(R13 (SP), 0x20001000)  returns 0x00 (0000ms, 12210ms total)
T3398 014:194 JLINK_WriteReg(R14, 0x20000001)  returns 0x00 (0000ms, 12210ms total)
T3398 014:194 JLINK_WriteReg(R15 (PC), 0x200000F4)  returns 0x00 (0000ms, 12210ms total)
T3398 014:194 JLINK_WriteReg(XPSR, 0x01000000)  returns 0x00 (0000ms, 12210ms total)
T3398 014:195 JLINK_WriteReg(MSP, 0x20001000)  returns 0x00 (0000ms, 12211ms total)
T3398 014:195 JLINK_WriteReg(PSP, 0x20001000)  returns 0x00 (0000ms, 12211ms total)
T3398 014:195 JLINK_WriteReg(CFBP, 0x00000000)  returns 0x00 (0000ms, 12211ms total)
T3398 014:195 JLINK_SetBPEx(Addr = 0x20000000, Type = 0xFFFFFFF2)  returns 0x0000000F (0000ms, 12211ms total)
T3398 014:195 JLINK_Go() (0003ms, 12214ms total)
T3398 014:198 JLINK_IsHalted()  returns FALSE (0001ms, 12215ms total)
T3398 014:207 JLINK_IsHalted()  returns FALSE (0001ms, 12215ms total)
T3398 014:210 JLINK_IsHalted()  returns FALSE (0001ms, 12215ms total)
T3398 014:213 JLINK_IsHalted()  returns FALSE (0001ms, 12215ms total)
T3398 014:216 JLINK_IsHalted()  returns FALSE (0001ms, 12215ms total)
T3398 014:219 JLINK_IsHalted()  returns FALSE (0001ms, 12215ms total)
T3398 014:222 JLINK_IsHalted()  returns FALSE (0001ms, 12215ms total)
T3398 014:225 JLINK_IsHalted()  returns FALSE (0001ms, 12215ms total)
T3398 014:228 JLINK_IsHalted()  returns FALSE (0001ms, 12215ms total)
T3398 014:231 JLINK_IsHalted() -- CPU_ReadMem(2 bytes @ 0x20000000)  returns TRUE (0004ms, 12218ms total)
T3398 014:235 JLINK_ReadReg(R15 (PC))  returns 0x20000000 (0000ms, 12214ms total)
T3398 014:235 JLINK_ClrBPEx(BPHandle = 0x0000000F)  returns 0x00 (0000ms, 12214ms total)
T3398 014:235 JLINK_ReadReg(R0)  returns 0x00000000 (0000ms, 12214ms total)
T3398 014:237 JLINK_WriteMem(0x20000164, 0x0400 Bytes, ...) - Data: 01 F0 4C F9 40 F2 07 21 08 20 01 F0 47 F9 00 21 ... -- CPU_WriteMem(1024 bytes @ 0x20000164)  returns 0x400 (0007ms, 12222ms total)
T3398 014:244 JLINK_WriteReg(R0, 0x08002C00)  returns 0x00 (0000ms, 12222ms total)
T3398 014:244 JLINK_WriteReg(R1, 0x00000400)  returns 0x00 (0000ms, 12222ms total)
T3398 014:244 JLINK_WriteReg(R2, 0x20000164)  returns 0x00 (0001ms, 12223ms total)
T3398 014:245 JLINK_WriteReg(R3, 0x00000000)  returns 0x00 (0000ms, 12223ms total)
T3398 014:245 JLINK_WriteReg(R4, 0x00000000)  returns 0x00 (0000ms, 12223ms total)
T3398 014:245 JLINK_WriteReg(R5, 0x00000000)  returns 0x00 (0000ms, 12223ms total)
T3398 014:245 JLINK_WriteReg(R6, 0x00000000)  returns 0x00 (0000ms, 12223ms total)
T3398 014:245 JLINK_WriteReg(R7, 0x00000000)  returns 0x00 (0000ms, 12223ms total)
T3398 014:245 JLINK_WriteReg(R8, 0x00000000)  returns 0x00 (0000ms, 12223ms total)
T3398 014:245 JLINK_WriteReg(R9, 0x20000160)  returns 0x00 (0001ms, 12224ms total)
T3398 014:246 JLINK_WriteReg(R10, 0x00000000)  returns 0x00 (0000ms, 12224ms total)
T3398 014:246 JLINK_WriteReg(R11, 0x00000000)  returns 0x00 (0000ms, 12224ms total)
T3398 014:246 JLINK_WriteReg(R12, 0x00000000)  returns 0x00 (0000ms, 12224ms total)
T3398 014:246 JLINK_WriteReg(R13 (SP), 0x20001000)  returns 0x00 (0000ms, 12224ms total)
T3398 014:246 JLINK_WriteReg(R14, 0x20000001)  returns 0x00 (0001ms, 12225ms total)
T3398 014:247 JLINK_WriteReg(R15 (PC), 0x200000F4)  returns 0x00 (0000ms, 12225ms total)
T3398 014:247 JLINK_WriteReg(XPSR, 0x01000000)  returns 0x00 (0000ms, 12225ms total)
T3398 014:247 JLINK_WriteReg(MSP, 0x20001000)  returns 0x00 (0000ms, 12225ms total)
T3398 014:247 JLINK_WriteReg(PSP, 0x20001000)  returns 0x00 (0000ms, 12225ms total)
T3398 014:247 JLINK_WriteReg(CFBP, 0x00000000)  returns 0x00 (0000ms, 12225ms total)
T3398 014:247 JLINK_SetBPEx(Addr = 0x20000000, Type = 0xFFFFFFF2)  returns 0x00000010 (0000ms, 12225ms total)
T3398 014:247 JLINK_Go() (0003ms, 12228ms total)
T3398 014:250 JLINK_IsHalted()  returns FALSE (0001ms, 12229ms total)
T3398 014:253 JLINK_IsHalted()  returns FALSE (0001ms, 12229ms total)
T3398 014:256 JLINK_IsHalted()  returns FALSE (0001ms, 12229ms total)
T3398 014:259 JLINK_IsHalted()  returns FALSE (0001ms, 12229ms total)
T3398 014:264 JLINK_IsHalted()  returns FALSE (0001ms, 12229ms total)
T3398 014:267 JLINK_IsHalted()  returns FALSE (0001ms, 12229ms total)
T3398 014:270 JLINK_IsHalted()  returns FALSE (0001ms, 12229ms total)
T3398 014:272 JLINK_IsHalted()  returns FALSE (0001ms, 12229ms total)
T3398 014:275 JLINK_IsHalted()  returns FALSE (0001ms, 12229ms total)
